T3A54 010:378 SEGGER J-Link V6.30h Log File (0000ms, 1907ms total)
T3A54 010:378 DLL Compiled: Mar 16 2018 18:02:51 (0000ms, 1907ms total)
T3A54 010:378 Logging started @ 2018-03-30 16:56 (0000ms, 1907ms total)
T3A54 010:378 JLINK_SetWarnOutHandler(...) (0000ms, 1907ms total)
T3A54 010:378 JLINK_OpenEx(...)
Firmware: J-Link V9 compiled Mar  2 2018 17:07:57
Hardware: V9.20
Feature(s): GDB, RDI, FlashBP, FlashDL, JFlash
TELNET listener socket opened on port 19021WEBSRV 
Starting webserver (0121ms, 2028ms total)
T3A54 010:378 WEBSRV Webserver running on local port 19080 (0122ms, 2029ms total)
T3A54 010:378   returns O.K. (0122ms, 2029ms total)
T3A54 010:500 JLINK_GetEmuCaps()  returns 0xB9FF7BBF (0000ms, 2029ms total)
T3A54 010:500 JLINK_TIF_GetAvailable(...) (0000ms, 2029ms total)
T3A54 010:500 JLINK_SetErrorOutHandler(...) (0000ms, 2029ms total)
T3A54 010:500 JLINK_ExecCommand("ProjectFile = "C:\Users\Administrator\Desktop\rt-thread-2.1.0\bsp\stm32f40x\JLinkSettings.ini"", ...).   returns 0x00 (0003ms, 2032ms total)
T3A54 010:503 JLINK_ExecCommand("Device = STM32F407VETx", ...). Device "STM32F407VE" selected.  returns 0x00 (0001ms, 2033ms total)
T3A54 010:504 JLINK_ExecCommand("DisableConnectionTimeout", ...).   returns 0x01 (0000ms, 2033ms total)
T3A54 010:504 JLINK_GetHardwareVersion()  returns 0x16760 (0000ms, 2033ms total)
T3A54 010:504 JLINK_GetDLLVersion()  returns 63008 (0000ms, 2033ms total)
T3A54 010:504 JLINK_GetFirmwareString(...) (0000ms, 2033ms total)
T3A54 010:504 JLINK_GetDLLVersion()  returns 63008 (0000ms, 2033ms total)
T3A54 010:504 JLINK_GetCompileDateTime() (0000ms, 2033ms total)
T3A54 010:504 JLINK_GetFirmwareString(...) (0000ms, 2033ms total)
T3A54 010:504 JLINK_GetHardwareVersion()  returns 0x16760 (0000ms, 2033ms total)
T3A54 010:504 JLINK_TIF_Select(JLINKARM_TIF_SWD)  returns 0x00 (0000ms, 2033ms total)
T3A54 010:504 JLINK_SetSpeed(1000) (0000ms, 2033ms total)
T3A54 010:504 JLINK_GetId() >0x10B TIF>Found SW-DP with ID 0x2BA01477 >0x0D TIF> >0x28 TIF> >0x0D TIF> >0x28 TIF> >0x0D TIF> >0x28 TIF> >0x0D TIF> >0x28 TIF> >0x0D TIF> >0x21 TIF> >0x0D TIF> >0x28 TIF> >0x0D TIF> >0x28 TIF> >0x0D TIF> >0x28 TIF> >0x0D TIF> >0x21 TIF> >0x0D TIF> >0x21 TIF> >0x0D TIF> >0x28 TIF> >0x0D TIF> >0x21 TIF> >0x0D TIF> >0x21 TIF> >0x0D TIF> >0x28 TIF> >0x0D TIF> >0x21 TIF> >0x0D TIF> >0x21 TIF> >0x0D TIF> >0x28 TIF> >0x0D TIF> >0x21 TIF> >0x0D TIF> >0x21 TIF> >0x0D TIF> >0x28 TIF>
 >0x0D TIF> >0x21 TIF> >0x0D TIF> >0x21 TIF> >0x0D TIF> >0x28 TIF> >0x0D TIF> >0x21 TIF> >0x0D TIF> >0x21 TIF> >0x10B TIF>Found SW-DP with ID 0x2BA01477 >0x0D TIF> >0x28 TIF> >0x0D TIF> >0x28 TIF> >0x0D TIF> >0x28 TIF> >0x0D TIF> >0x28 TIF> >0x0D TIF> >0x21 TIF> >0x0D TIF> >0x28 TIF>Scanning AP map to find all available APs >0x0D TIF> >0x28 TIF> >0x0D TIF> >0x21 TIF> >0x0D TIF> >0x21 TIF> >0x0D TIF> >0x28 TIF> >0x0D TIF> >0x21 TIF> >0x0D TIF> >0x21 TIF>
AP[1]: Stopped AP scan as end of AP map has been reachedAP[0]: AHB-AP (IDR: 0x24770011)Iterating through AP map to find AHB-AP to use >0x42 TIF> >0x28 TIF> >0x0D TIF> >0x28 TIF> >0x0D TIF> >0x21 TIF> >0x0D TIF> >0x21 TIF> >0x42 TIF> >0x28 TIF> >0x0D TIF> >0x28 TIF> >0x0D TIF> >0x28 TIF> >0x0D TIF> >0x21 TIF> >0x0D TIF> >0x21 TIF>AP[0]: Core foundAP[0]: AHB-AP ROM base: 0xE00FF000 >0x0D TIF> >0x28 TIF> >0x0D TIF> >0x28 TIF> >0x0D TIF> >0x28 TIF> >0x0D TIF> >0x21 TIF> >0x0D TIF> >0x21 TIF>
CPUID register: 0x410FC241. Implementer code: 0x41 (ARM)Found Cortex-M4 r0p1, Little endian. -- CPU_ReadMem(4 bytes @ 0xE000EDF0) -- CPU_ReadMem(4 bytes @ 0xE0002000)FPUnit: 6 code (BP) slots and 2 literal slots -- CPU_ReadMem(4 bytes @ 0xE000EDFC) -- CPU_ReadMem(4 bytes @ 0xE0001000) -- CPU_WriteMem(4 bytes @ 0xE0001000) -- CPU_ReadMem(4 bytes @ 0xE000ED88) -- CPU_WriteMem(4 bytes @ 0xE000ED88) -- CPU_ReadMem(4 bytes @ 0xE000ED88) -- CPU_WriteMem(4 bytes @ 0xE000ED88)CoreSight components:
ROMTbl[0] @ E00FF000 -- CPU_ReadMem(16 bytes @ 0xE00FF000) -- CPU_ReadMem(16 bytes @ 0xE000EFF0) -- CPU_ReadMem(16 bytes @ 0xE000EFE0)ROMTbl[0][0]: E000E000, CID: B105E00D, PID: 000BB00C SCS-M7 -- CPU_ReadMem(16 bytes @ 0xE0001FF0) -- CPU_ReadMem(16 bytes @ 0xE0001FE0)ROMTbl[0][1]: E0001000, CID: B105E00D, PID: 003BB002 DWT -- CPU_ReadMem(16 bytes @ 0xE0002FF0) -- CPU_ReadMem(16 bytes @ 0xE0002FE0)ROMTbl[0][2]: E0002000, CID: B105E00D, PID: 002BB003 FPB -- CPU_ReadMem(16 bytes @ 0xE0000FF0)
 -- CPU_ReadMem(16 bytes @ 0xE0000FE0)ROMTbl[0][3]: E0000000, CID: B105E00D, PID: 003BB001 ITM -- CPU_ReadMem(16 bytes @ 0xE00FF010) -- CPU_ReadMem(16 bytes @ 0xE0040FF0) -- CPU_ReadMem(16 bytes @ 0xE0040FE0)ROMTbl[0][4]: E0040000, CID: B105900D, PID: 000BB9A1 TPIU -- CPU_ReadMem(16 bytes @ 0xE0041FF0) -- CPU_ReadMem(16 bytes @ 0xE0041FE0)ROMTbl[0][5]: E0041000, CID: B105900D, PID: 000BB925 ETM >0x0D TIF> >0x21 TIF>  returns 0x2BA01477 (0136ms, 2169ms total)
T3A54 010:640 JLINK_GetDLLVersion()  returns 63008 (0000ms, 2169ms total)
T3A54 010:640 JLINK_CORE_GetFound()  returns 0xE0000FF (0000ms, 2169ms total)
T3A54 010:640 JLINK_GetDebugInfo(0x100 = JLINKARM_ROM_TABLE_ADDR_INDEX) -- Value=0xE00FF000  returns 0x00 (0000ms, 2169ms total)
T3A54 010:640 JLINK_GetDebugInfo(0x100 = JLINKARM_ROM_TABLE_ADDR_INDEX) -- Value=0xE00FF000  returns 0x00 (0000ms, 2169ms total)
T3A54 010:640 JLINK_GetDebugInfo(0x101 = JLINKARM_DEBUG_INFO_ETM_ADDR_INDEX) -- Value=0xE0041000  returns 0x00 (0000ms, 2169ms total)
T3A54 010:640 JLINK_ReadMemEx(0xE0041FD0, 0x0020 Bytes, ..., Flags = 0x02000004) -- CPU_ReadMem(32 bytes @ 0xE0041FD0) - Data: 04 00 00 00 00 00 00 00 00 00 00 00 00 00 00 00 ...  returns 0x20 (0001ms, 2170ms total)
T3A54 010:641 JLINK_GetDebugInfo(0x102 = JLINKARM_DEBUG_INFO_MTB_ADDR_INDEX) -- Value=0x00000000  returns 0x00 (0000ms, 2170ms total)
T3A54 010:641 JLINK_GetDebugInfo(0x103 = JLINKARM_DEBUG_INFO_TPIU_ADDR_INDEX) -- Value=0xE0040000  returns 0x00 (0000ms, 2170ms total)
T3A54 010:641 JLINK_GetDebugInfo(0x104 = JLINKARM_DEBUG_INFO_ITM_ADDR_INDEX) -- Value=0xE0000000  returns 0x00 (0000ms, 2170ms total)
T3A54 010:641 JLINK_GetDebugInfo(0x105 = JLINKARM_DEBUG_INFO_DWT_ADDR_INDEX) -- Value=0xE0001000  returns 0x00 (0000ms, 2170ms total)
T3A54 010:641 JLINK_GetDebugInfo(0x106 = JLINKARM_DEBUG_INFO_FPB_ADDR_INDEX) -- Value=0xE0002000  returns 0x00 (0000ms, 2170ms total)
T3A54 010:641 JLINK_GetDebugInfo(0x107 = JLINKARM_DEBUG_INFO_NVIC_ADDR_INDEX) -- Value=0xE000E000  returns 0x00 (0000ms, 2170ms total)
T3A54 010:641 JLINK_GetDebugInfo(0x10C = JLINKARM_DEBUG_INFO_DBG_ADDR_INDEX) -- Value=0xE000EDF0  returns 0x00 (0000ms, 2170ms total)
T3A54 010:641 JLINK_GetDebugInfo(0x01 = Unknown) -- Value=0x00000001  returns 0x00 (0000ms, 2170ms total)
T3A54 010:641 JLINK_ReadMemU32(0xE000ED00, 0x0001 Items, ...) -- CPU_ReadMem(4 bytes @ 0xE000ED00) - Data: 41 C2 0F 41  returns 0x01 (0001ms, 2171ms total)
T3A54 010:642 JLINK_GetDebugInfo(0x10F = JLINKARM_DEBUG_INFO_HAS_CORTEX_M_SECURITY_EXT_INDEX) -- Value=0x00000000  returns 0x00 (0000ms, 2171ms total)
T3A54 010:642 JLINK_SetResetType(JLINKARM_CM3_RESET_TYPE_NORMAL)  returns JLINKARM_CM3_RESET_TYPE_NORMAL (0000ms, 2171ms total)
T3A54 010:642 JLINK_Reset() -- CPU is running -- CPU_WriteMem(4 bytes @ 0xE000EDF0) -- CPU is running -- CPU_WriteMem(4 bytes @ 0xE000EDFC)Reset: Halt core after reset via DEMCR.VC_CORERESET. >0x35 TIF>Reset: Reset device via AIRCR.SYSRESETREQ. -- CPU is running -- CPU_WriteMem(4 bytes @ 0xE000ED0C) >0x0D TIF> >0x28 TIF> -- CPU_ReadMem(4 bytes @ 0xE000EDF0) -- CPU_ReadMem(4 bytes @ 0xE000EDF0) -- CPU is running -- CPU_WriteMem(4 bytes @ 0xE000EDF0) -- CPU is running -- CPU_WriteMem(4 bytes @ 0xE000EDFC)
 -- CPU_ReadMem(4 bytes @ 0xE000EDF0) -- CPU_WriteMem(4 bytes @ 0xE0002000) -- CPU_ReadMem(4 bytes @ 0xE000EDFC) -- CPU_ReadMem(4 bytes @ 0xE0001000) (0070ms, 2241ms total)
T3A54 010:712 JLINK_ReadReg(R15 (PC))  returns 0x08003E60 (0000ms, 2241ms total)
T3A54 010:712 JLINK_ReadReg(XPSR)  returns 0x01000000 (0000ms, 2241ms total)
T3A54 010:712 JLINK_Halt()  returns 0x00 (0000ms, 2241ms total)
T3A54 010:712 JLINK_ReadMemU32(0xE000EDF0, 0x0001 Items, ...) -- CPU_ReadMem(4 bytes @ 0xE000EDF0) - Data: 03 00 03 00  returns 0x01 (0000ms, 2241ms total)
T3A54 010:712 JLINK_WriteU32(0xE000EDF0, 0xA05F0003) -- CPU_WriteMem(4 bytes @ 0xE000EDF0)  returns 0x00 (0001ms, 2242ms total)
T3A54 010:713 JLINK_WriteU32(0xE000EDFC, 0x01000000) -- CPU_WriteMem(4 bytes @ 0xE000EDFC)  returns 0x00 (0000ms, 2242ms total)
T3A54 010:713 JLINK_GetHWStatus(...)  returns 0x00 (0000ms, 2242ms total)
T3A54 010:713 JLINK_GetNumBPUnits(Type = 0xFFFFFF00)  returns 0x06 (0000ms, 2242ms total)
T3A54 010:713 JLINK_GetNumBPUnits(Type = 0xF0)  returns 0x2000 (0001ms, 2243ms total)
T3A54 010:714 JLINK_GetNumWPUnits()  returns 0x04 (0000ms, 2243ms total)
T3A54 010:714 JLINK_GetSpeed()  returns 0x3E8 (0000ms, 2243ms total)
T3A54 010:714 JLINK_ReadMemU32(0xE000E004, 0x0001 Items, ...) -- CPU_ReadMem(4 bytes @ 0xE000E004) - Data: 02 00 00 00  returns 0x01 (0000ms, 2243ms total)
T3A54 010:714 JLINK_ReadMemU32(0xE000E004, 0x0001 Items, ...) -- CPU_ReadMem(4 bytes @ 0xE000E004) - Data: 02 00 00 00  returns 0x01 (0001ms, 2244ms total)
T3A54 010:715 JLINK_WriteMemEx(0xE0001000, 0x001C Bytes, ..., Flags = 0x02000004) - Data: 01 00 00 00 00 00 00 00 00 00 00 00 00 00 00 00 ... -- CPU_WriteMem(28 bytes @ 0xE0001000)  returns 0x1C (0001ms, 2245ms total)
T3A54 010:716 JLINK_ReadReg(R15 (PC))  returns 0x08003E60 (0000ms, 2245ms total)
T3A54 010:716 JLINK_ReadReg(XPSR)  returns 0x01000000 (0000ms, 2245ms total)
T3A54 010:818 JLINK_SetResetType(JLINKARM_CM3_RESET_TYPE_NORMAL)  returns JLINKARM_CM3_RESET_TYPE_NORMAL (0000ms, 2245ms total)
T3A54 010:818 JLINK_Reset() -- CPU_WriteMem(4 bytes @ 0xE000EDF0) -- CPU_WriteMem(4 bytes @ 0xE000EDFC)Reset: Halt core after reset via DEMCR.VC_CORERESET. >0x35 TIF>Reset: Reset device via AIRCR.SYSRESETREQ. -- CPU_WriteMem(4 bytes @ 0xE000ED0C) >0x0D TIF> >0x28 TIF> -- CPU_ReadMem(4 bytes @ 0xE000EDF0) -- CPU_ReadMem(4 bytes @ 0xE000EDF0) -- CPU_WriteMem(4 bytes @ 0xE000EDF0) -- CPU_WriteMem(4 bytes @ 0xE000EDFC) -- CPU_ReadMem(4 bytes @ 0xE000EDF0) -- CPU_WriteMem(4 bytes @ 0xE0002000)
 -- CPU_ReadMem(4 bytes @ 0xE000EDFC) -- CPU_ReadMem(4 bytes @ 0xE0001000) (0070ms, 2315ms total)
T3A54 010:888 JLINK_ReadReg(R15 (PC))  returns 0x08003E60 (0000ms, 2315ms total)
T3A54 010:888 JLINK_ReadReg(XPSR)  returns 0x01000000 (0000ms, 2315ms total)
T3A54 010:888 JLINK_ReadMemEx(0x08003E60, 0x003C Bytes, ..., Flags = 0x02000000) -- CPU_ReadMem(128 bytes @ 0x08003E40) -- Updating C cache (128 bytes @ 0x08003E40) -- Read from C cache (60 bytes @ 0x08003E60) - Data: 09 48 80 47 09 48 00 47 FE E7 FE E7 FE E7 FE E7 ...  returns 0x3C (0002ms, 2317ms total)
T3A54 013:110 JLINK_ReadReg(R0)  returns 0x00000000 (0001ms, 2318ms total)
T3A54 013:111 JLINK_ReadReg(R1)  returns 0x00000000 (0000ms, 2318ms total)
T3A54 013:111 JLINK_ReadReg(R2)  returns 0x00000000 (0000ms, 2318ms total)
T3A54 013:111 JLINK_ReadReg(R3)  returns 0x00000000 (0000ms, 2318ms total)
T3A54 013:111 JLINK_ReadReg(R4)  returns 0x00000000 (0000ms, 2318ms total)
T3A54 013:111 JLINK_ReadReg(R5)  returns 0x00000000 (0000ms, 2318ms total)
T3A54 013:111 JLINK_ReadReg(R6)  returns 0x00000000 (0000ms, 2318ms total)
T3A54 013:111 JLINK_ReadReg(R7)  returns 0x00000000 (0000ms, 2318ms total)
T3A54 013:111 JLINK_ReadReg(R8)  returns 0x00000000 (0000ms, 2318ms total)
T3A54 013:111 JLINK_ReadReg(R9)  returns 0x00000000 (0000ms, 2318ms total)
T3A54 013:111 JLINK_ReadReg(R10)  returns 0x00000000 (0000ms, 2318ms total)
T3A54 013:111 JLINK_ReadReg(R11)  returns 0x00000000 (0000ms, 2318ms total)
T3A54 013:111 JLINK_ReadReg(R12)  returns 0x00000000 (0000ms, 2318ms total)
T3A54 013:111 JLINK_ReadReg(R13 (SP))  returns 0x200033A8 (0000ms, 2318ms total)
T3A54 013:111 JLINK_ReadReg(R14)  returns 0xFFFFFFFF (0000ms, 2318ms total)
T3A54 013:111 JLINK_ReadReg(R15 (PC))  returns 0x08003E60 (0000ms, 2318ms total)
T3A54 013:111 JLINK_ReadReg(XPSR)  returns 0x01000000 (0000ms, 2318ms total)
T3A54 013:111 JLINK_ReadReg(MSP)  returns 0x200033A8 (0000ms, 2318ms total)
T3A54 013:111 JLINK_ReadReg(PSP)  returns 0x00000000 (0000ms, 2318ms total)
T3A54 013:111 JLINK_ReadReg(CFBP)  returns 0x00000000 (0000ms, 2318ms total)
T3A54 013:111 JLINK_ReadReg(FPSCR)  returns 0x00000000 (0010ms, 2328ms total)
T3A54 013:121 JLINK_ReadReg(FPS0)  returns 0x00000000 (0000ms, 2328ms total)
T3A54 013:121 JLINK_ReadReg(FPS1)  returns 0x00000000 (0000ms, 2328ms total)
T3A54 013:121 JLINK_ReadReg(FPS2)  returns 0x00000000 (0000ms, 2328ms total)
T3A54 013:121 JLINK_ReadReg(FPS3)  returns 0x00000000 (0000ms, 2328ms total)
T3A54 013:121 JLINK_ReadReg(FPS4)  returns 0x00000000 (0000ms, 2328ms total)
T3A54 013:121 JLINK_ReadReg(FPS5)  returns 0x00000000 (0000ms, 2328ms total)
T3A54 013:121 JLINK_ReadReg(FPS6)  returns 0x00000000 (0000ms, 2328ms total)
T3A54 013:121 JLINK_ReadReg(FPS7)  returns 0x00000000 (0000ms, 2328ms total)
T3A54 013:121 JLINK_ReadReg(FPS8)  returns 0x00000000 (0000ms, 2328ms total)
T3A54 013:121 JLINK_ReadReg(FPS9)  returns 0x00000000 (0000ms, 2328ms total)
T3A54 013:121 JLINK_ReadReg(FPS10)  returns 0x00000000 (0000ms, 2328ms total)
T3A54 013:121 JLINK_ReadReg(FPS11)  returns 0x00000000 (0000ms, 2328ms total)
T3A54 013:121 JLINK_ReadReg(FPS12)  returns 0x00000000 (0000ms, 2328ms total)
T3A54 013:121 JLINK_ReadReg(FPS13)  returns 0x00000000 (0000ms, 2328ms total)
T3A54 013:121 JLINK_ReadReg(FPS14)  returns 0x00000000 (0000ms, 2328ms total)
T3A54 013:121 JLINK_ReadReg(FPS15)  returns 0x00000000 (0000ms, 2328ms total)
T3A54 013:121 JLINK_ReadReg(FPS16)  returns 0x00000000 (0000ms, 2328ms total)
T3A54 013:121 JLINK_ReadReg(FPS17)  returns 0x00000000 (0000ms, 2328ms total)
T3A54 013:121 JLINK_ReadReg(FPS18)  returns 0x00000000 (0000ms, 2328ms total)
T3A54 013:121 JLINK_ReadReg(FPS19)  returns 0x00000000 (0000ms, 2328ms total)
T3A54 013:121 JLINK_ReadReg(FPS20)  returns 0x00000000 (0000ms, 2328ms total)
T3A54 013:121 JLINK_ReadReg(FPS21)  returns 0x00000000 (0000ms, 2328ms total)
T3A54 013:121 JLINK_ReadReg(FPS22)  returns 0x00000000 (0000ms, 2328ms total)
T3A54 013:121 JLINK_ReadReg(FPS23)  returns 0x00000000 (0000ms, 2328ms total)
T3A54 013:121 JLINK_ReadReg(FPS24)  returns 0x00000000 (0000ms, 2328ms total)
T3A54 013:121 JLINK_ReadReg(FPS25)  returns 0x00000000 (0000ms, 2328ms total)
T3A54 013:121 JLINK_ReadReg(FPS26)  returns 0x00000000 (0000ms, 2328ms total)
T3A54 013:121 JLINK_ReadReg(FPS27)  returns 0x00000000 (0000ms, 2328ms total)
T3A54 013:121 JLINK_ReadReg(FPS28)  returns 0x00000000 (0000ms, 2328ms total)
T3A54 013:121 JLINK_ReadReg(FPS29)  returns 0x00000000 (0000ms, 2328ms total)
T3A54 013:121 JLINK_ReadReg(FPS30)  returns 0x00000000 (0000ms, 2328ms total)
T3A54 013:121 JLINK_ReadReg(FPS31)  returns 0x00000000 (0000ms, 2328ms total)
T3A54 013:146 JLINK_ReadMemEx(0x20001EC8, 0x0020 Bytes, ..., Flags = 0x02000000) -- CPU_ReadMem(64 bytes @ 0x20001EC0) -- Updating C cache (64 bytes @ 0x20001EC0) -- Read from C cache (32 bytes @ 0x20001EC8) - Data: 00 00 7D 00 01 00 01 02 00 00 00 00 00 00 00 00 ...  returns 0x20 (0001ms, 2329ms total)
T28A8 013:714 JLINK_ReadMemEx(0x08003E60, 0x0002 Bytes, ..., Flags = 0x02000000) -- Read from C cache (2 bytes @ 0x08003E60) - Data: 09 48  returns 0x02 (0000ms, 2329ms total)
T28A8 013:714 JLINK_SetBPEx(Addr = 0x0800031C, Type = 0xFFFFFFF2)  returns 0x00000001 (0000ms, 2329ms total)
T28A8 013:714 JLINK_SetBPEx(Addr = 0x0800F546, Type = 0xFFFFFFF2)  returns 0x00000002 (0000ms, 2329ms total)
T28A8 013:714 JLINK_SetBPEx(Addr = 0x0800EB8E, Type = 0xFFFFFFF2)  returns 0x00000003 (0000ms, 2329ms total)
T28A8 013:714 JLINK_SetBPEx(Addr = 0x0800EB6A, Type = 0xFFFFFFF2)  returns 0x00000004 (0000ms, 2329ms total)
T28A8 013:714 JLINK_SetBPEx(Addr = 0x0800F3C4, Type = 0xFFFFFFF2)  returns 0x00000005 (0000ms, 2329ms total)
T28A8 013:714 JLINK_Go() -- CPU_WriteMem(4 bytes @ 0xE0002000) -- CPU_WriteMem(4 bytes @ 0xE0002000) -- CPU_WriteMem(4 bytes @ 0xE0002000) -- CPU_WriteMem(4 bytes @ 0xE0002000) -- CPU_WriteMem(4 bytes @ 0xE0002000) -- CPU_ReadMem(4 bytes @ 0xE0001000) -- CPU_WriteMem(4 bytes @ 0xE0002008) -- CPU_WriteMem(4 bytes @ 0xE000200C) -- CPU_WriteMem(4 bytes @ 0xE0002010) -- CPU_WriteMem(4 bytes @ 0xE0002014) -- CPU_WriteMem(4 bytes @ 0xE0002018) -- CPU_WriteMem(4 bytes @ 0xE000201C)
 -- CPU_WriteMem(4 bytes @ 0xE0001004) (0007ms, 2336ms total)
T28A8 013:822 JLINK_IsHalted()  returns TRUE (0006ms, 2342ms total)
T28A8 013:828 JLINK_Halt()  returns 0x00 (0000ms, 2336ms total)
T28A8 013:828 JLINK_IsHalted()  returns TRUE (0000ms, 2336ms total)
T28A8 013:828 JLINK_IsHalted()  returns TRUE (0000ms, 2336ms total)
T28A8 013:828 JLINK_IsHalted()  returns TRUE (0000ms, 2336ms total)
T28A8 013:828 JLINK_ReadReg(R15 (PC))  returns 0x0800031C (0000ms, 2336ms total)
T28A8 013:828 JLINK_ReadReg(XPSR)  returns 0x01000000 (0000ms, 2336ms total)
T28A8 013:828 JLINK_ClrBPEx(BPHandle = 0x00000001)  returns 0x00 (0000ms, 2336ms total)
T28A8 013:828 JLINK_ClrBPEx(BPHandle = 0x00000002)  returns 0x00 (0000ms, 2336ms total)
T28A8 013:828 JLINK_ClrBPEx(BPHandle = 0x00000003)  returns 0x00 (0000ms, 2336ms total)
T28A8 013:828 JLINK_ClrBPEx(BPHandle = 0x00000004)  returns 0x00 (0000ms, 2336ms total)
T28A8 013:828 JLINK_ClrBPEx(BPHandle = 0x00000005)  returns 0x00 (0000ms, 2336ms total)
T28A8 013:828 JLINK_ReadMemU32(0xE000ED30, 0x0001 Items, ...) -- CPU_ReadMem(4 bytes @ 0xE000ED30) - Data: 02 00 00 00  returns 0x01 (0001ms, 2337ms total)
T28A8 013:829 JLINK_ReadMemU32(0xE0001028, 0x0001 Items, ...) -- CPU_ReadMem(4 bytes @ 0xE0001028) - Data: 00 00 00 00  returns 0x01 (0000ms, 2337ms total)
T28A8 013:829 JLINK_ReadMemU32(0xE0001038, 0x0001 Items, ...) -- CPU_ReadMem(4 bytes @ 0xE0001038) - Data: 00 02 00 00  returns 0x01 (0001ms, 2338ms total)
T28A8 013:830 JLINK_ReadMemU32(0xE0001048, 0x0001 Items, ...) -- CPU_ReadMem(4 bytes @ 0xE0001048) - Data: 00 00 00 00  returns 0x01 (0000ms, 2338ms total)
T28A8 013:830 JLINK_ReadMemU32(0xE0001058, 0x0001 Items, ...) -- CPU_ReadMem(4 bytes @ 0xE0001058) - Data: 00 00 00 00  returns 0x01 (0001ms, 2339ms total)
T28A8 013:831 JLINK_ReadReg(R0)  returns 0x200031A8 (0000ms, 2339ms total)
T28A8 013:831 JLINK_ReadReg(R1)  returns 0x200033A8 (0000ms, 2339ms total)
T28A8 013:831 JLINK_ReadReg(R2)  returns 0x200033A8 (0000ms, 2339ms total)
T28A8 013:831 JLINK_ReadReg(R3)  returns 0x200033A8 (0000ms, 2339ms total)
T28A8 013:831 JLINK_ReadReg(R4)  returns 0x00000000 (0000ms, 2339ms total)
T28A8 013:831 JLINK_ReadReg(R5)  returns 0x20003148 (0000ms, 2339ms total)
T28A8 013:831 JLINK_ReadReg(R6)  returns 0x00000000 (0000ms, 2339ms total)
T28A8 013:831 JLINK_ReadReg(R7)  returns 0x00000000 (0000ms, 2339ms total)
T28A8 013:831 JLINK_ReadReg(R8)  returns 0x00000000 (0000ms, 2339ms total)
T28A8 013:831 JLINK_ReadReg(R9)  returns 0x00000000 (0000ms, 2339ms total)
T28A8 013:831 JLINK_ReadReg(R10)  returns 0x080112BC (0000ms, 2339ms total)
T28A8 013:831 JLINK_ReadReg(R11)  returns 0x00000000 (0000ms, 2339ms total)
T28A8 013:831 JLINK_ReadReg(R12)  returns 0x20003188 (0000ms, 2339ms total)
T28A8 013:831 JLINK_ReadReg(R13 (SP))  returns 0x200033A8 (0000ms, 2339ms total)
T28A8 013:831 JLINK_ReadReg(R14)  returns 0x08000269 (0000ms, 2339ms total)
T28A8 013:831 JLINK_ReadReg(R15 (PC))  returns 0x0800031C (0000ms, 2339ms total)
T28A8 013:831 JLINK_ReadReg(XPSR)  returns 0x01000000 (0000ms, 2339ms total)
T28A8 013:831 JLINK_ReadReg(MSP)  returns 0x200033A8 (0000ms, 2339ms total)
T28A8 013:831 JLINK_ReadReg(PSP)  returns 0x00000000 (0000ms, 2339ms total)
T28A8 013:831 JLINK_ReadReg(CFBP)  returns 0x04000000 (0000ms, 2339ms total)
T28A8 013:831 JLINK_ReadReg(FPSCR)  returns 0x03000000 (0010ms, 2349ms total)
T28A8 013:841 JLINK_ReadReg(FPS0)  returns 0x00000000 (0000ms, 2349ms total)
T28A8 013:841 JLINK_ReadReg(FPS1)  returns 0x00000000 (0000ms, 2349ms total)
T28A8 013:841 JLINK_ReadReg(FPS2)  returns 0x00000000 (0000ms, 2349ms total)
T28A8 013:841 JLINK_ReadReg(FPS3)  returns 0x00000000 (0000ms, 2349ms total)
T28A8 013:841 JLINK_ReadReg(FPS4)  returns 0x00000000 (0000ms, 2349ms total)
T28A8 013:841 JLINK_ReadReg(FPS5)  returns 0x00000000 (0000ms, 2349ms total)
T28A8 013:841 JLINK_ReadReg(FPS6)  returns 0x00000000 (0000ms, 2349ms total)
T28A8 013:841 JLINK_ReadReg(FPS7)  returns 0x00000000 (0000ms, 2349ms total)
T28A8 013:841 JLINK_ReadReg(FPS8)  returns 0x00000000 (0000ms, 2349ms total)
T28A8 013:841 JLINK_ReadReg(FPS9)  returns 0x00000000 (0000ms, 2349ms total)
T28A8 013:841 JLINK_ReadReg(FPS10)  returns 0x00000000 (0000ms, 2349ms total)
T28A8 013:841 JLINK_ReadReg(FPS11)  returns 0x00000000 (0000ms, 2349ms total)
T28A8 013:841 JLINK_ReadReg(FPS12)  returns 0x00000000 (0000ms, 2349ms total)
T28A8 013:841 JLINK_ReadReg(FPS13)  returns 0x00000000 (0000ms, 2349ms total)
T28A8 013:841 JLINK_ReadReg(FPS14)  returns 0x00000000 (0000ms, 2349ms total)
T28A8 013:841 JLINK_ReadReg(FPS15)  returns 0x00000000 (0000ms, 2349ms total)
T28A8 013:841 JLINK_ReadReg(FPS16)  returns 0x00000000 (0000ms, 2349ms total)
T28A8 013:841 JLINK_ReadReg(FPS17)  returns 0x00000000 (0000ms, 2349ms total)
T28A8 013:841 JLINK_ReadReg(FPS18)  returns 0x00000000 (0000ms, 2349ms total)
T28A8 013:841 JLINK_ReadReg(FPS19)  returns 0x00000000 (0000ms, 2349ms total)
T28A8 013:841 JLINK_ReadReg(FPS20)  returns 0x00000000 (0000ms, 2349ms total)
T28A8 013:841 JLINK_ReadReg(FPS21)  returns 0x00000000 (0000ms, 2349ms total)
T28A8 013:841 JLINK_ReadReg(FPS22)  returns 0x00000000 (0000ms, 2349ms total)
T28A8 013:841 JLINK_ReadReg(FPS23)  returns 0x00000000 (0000ms, 2349ms total)
T28A8 013:841 JLINK_ReadReg(FPS24)  returns 0x00000000 (0000ms, 2349ms total)
T28A8 013:841 JLINK_ReadReg(FPS25)  returns 0x00000000 (0000ms, 2349ms total)
T28A8 013:841 JLINK_ReadReg(FPS26)  returns 0x00000000 (0000ms, 2349ms total)
T28A8 013:841 JLINK_ReadReg(FPS27)  returns 0x00000000 (0000ms, 2349ms total)
T28A8 013:841 JLINK_ReadReg(FPS28)  returns 0x00000000 (0000ms, 2349ms total)
T28A8 013:841 JLINK_ReadReg(FPS29)  returns 0x00000000 (0000ms, 2349ms total)
T28A8 013:841 JLINK_ReadReg(FPS30)  returns 0x00000000 (0000ms, 2349ms total)
T28A8 013:841 JLINK_ReadReg(FPS31)  returns 0x00000000 (0000ms, 2349ms total)
T3A54 013:847 JLINK_ReadMemEx(0x20001EC8, 0x0020 Bytes, ..., Flags = 0x02000000) -- CPU_ReadMem(64 bytes @ 0x20001EC0) -- Updating C cache (64 bytes @ 0x20001EC0) -- Read from C cache (32 bytes @ 0x20001EC8) - Data: 00 00 00 00 00 00 00 00 00 00 00 00 00 00 00 00 ...  returns 0x20 (0002ms, 2351ms total)
T3A54 013:851 JLINK_ReadMemEx(0x0800031A, 0x0002 Bytes, ..., Flags = 0x02000000) -- CPU_ReadMem(64 bytes @ 0x08000300) -- Updating C cache (64 bytes @ 0x08000300) -- Read from C cache (2 bytes @ 0x0800031A) - Data: 10 BD  returns 0x02 (0001ms, 2352ms total)
T3A54 013:852 JLINK_ReadMemEx(0x0800031C, 0x003C Bytes, ..., Flags = 0x02000000) -- CPU_ReadMem(64 bytes @ 0x08000340) -- Updating C cache (64 bytes @ 0x08000340) -- Read from C cache (60 bytes @ 0x0800031C) - Data: 10 B5 07 F0 69 FD FF F7 DC FF 00 20 10 BD 00 00 ...  returns 0x3C (0002ms, 2354ms total)
T28A8 024:686 JLINK_ReadMemEx(0x0800031C, 0x0002 Bytes, ..., Flags = 0x02000000) -- Read from C cache (2 bytes @ 0x0800031C) - Data: 10 B5  returns 0x02 (0000ms, 2354ms total)
T28A8 024:687 JLINK_SetBPEx(Addr = 0x0800F546, Type = 0xFFFFFFF2)  returns 0x00000006 (0000ms, 2355ms total)
T28A8 024:687 JLINK_SetBPEx(Addr = 0x0800EB8E, Type = 0xFFFFFFF2)  returns 0x00000007 (0000ms, 2355ms total)
T28A8 024:687 JLINK_SetBPEx(Addr = 0x0800EB6A, Type = 0xFFFFFFF2)  returns 0x00000008 (0000ms, 2355ms total)
T28A8 024:687 JLINK_SetBPEx(Addr = 0x0800F3C4, Type = 0xFFFFFFF2)  returns 0x00000009 (0000ms, 2355ms total)
T28A8 024:687 JLINK_Go() -- CPU_WriteMem(4 bytes @ 0xE0002000) -- CPU_WriteMem(4 bytes @ 0xE0002000) -- CPU_WriteMem(4 bytes @ 0xE0002000) -- CPU_WriteMem(4 bytes @ 0xE0002000) -- CPU_ReadMem(4 bytes @ 0xE0001000) -- CPU_WriteMem(4 bytes @ 0xE0002008) -- CPU_WriteMem(4 bytes @ 0xE000200C) -- CPU_WriteMem(4 bytes @ 0xE0002010) -- CPU_WriteMem(4 bytes @ 0xE0002014) -- CPU_WriteMem(4 bytes @ 0xE0002018) (0006ms, 2361ms total)
T28A8 024:795 JLINK_IsHalted()  returns TRUE (0006ms, 2367ms total)
T28A8 024:801 JLINK_Halt()  returns 0x00 (0000ms, 2361ms total)
T28A8 024:801 JLINK_IsHalted()  returns TRUE (0000ms, 2361ms total)
T28A8 024:801 JLINK_IsHalted()  returns TRUE (0000ms, 2361ms total)
T28A8 024:801 JLINK_IsHalted()  returns TRUE (0000ms, 2361ms total)
T28A8 024:801 JLINK_ReadReg(R15 (PC))  returns 0x0800F546 (0000ms, 2361ms total)
T28A8 024:801 JLINK_ReadReg(XPSR)  returns 0x61000000 (0000ms, 2361ms total)
T28A8 024:801 JLINK_ClrBPEx(BPHandle = 0x00000006)  returns 0x00 (0000ms, 2361ms total)
T28A8 024:801 JLINK_ClrBPEx(BPHandle = 0x00000007)  returns 0x00 (0000ms, 2361ms total)
T28A8 024:801 JLINK_ClrBPEx(BPHandle = 0x00000008)  returns 0x00 (0000ms, 2361ms total)
T28A8 024:801 JLINK_ClrBPEx(BPHandle = 0x00000009)  returns 0x00 (0000ms, 2361ms total)
T28A8 024:801 JLINK_ReadMemU32(0xE000ED30, 0x0001 Items, ...) -- CPU_ReadMem(4 bytes @ 0xE000ED30) - Data: 02 00 00 00  returns 0x01 (0000ms, 2361ms total)
T28A8 024:801 JLINK_ReadMemU32(0xE0001028, 0x0001 Items, ...) -- CPU_ReadMem(4 bytes @ 0xE0001028) - Data: 00 00 00 00  returns 0x01 (0001ms, 2362ms total)
T28A8 024:802 JLINK_ReadMemU32(0xE0001038, 0x0001 Items, ...) -- CPU_ReadMem(4 bytes @ 0xE0001038) - Data: 00 02 00 00  returns 0x01 (0000ms, 2362ms total)
T28A8 024:802 JLINK_ReadMemU32(0xE0001048, 0x0001 Items, ...) -- CPU_ReadMem(4 bytes @ 0xE0001048) - Data: 00 00 00 00  returns 0x01 (0001ms, 2363ms total)
T28A8 024:803 JLINK_ReadMemU32(0xE0001058, 0x0001 Items, ...) -- CPU_ReadMem(4 bytes @ 0xE0001058) - Data: 00 00 00 00  returns 0x01 (0000ms, 2363ms total)
T28A8 024:803 JLINK_ReadReg(R0)  returns 0x00000000 (0000ms, 2363ms total)
T28A8 024:803 JLINK_ReadReg(R1)  returns 0x00000001 (0000ms, 2363ms total)
T28A8 024:803 JLINK_ReadReg(R2)  returns 0x00008000 (0000ms, 2363ms total)
T28A8 024:803 JLINK_ReadReg(R3)  returns 0x00010201 (0000ms, 2363ms total)
T28A8 024:803 JLINK_ReadReg(R4)  returns 0x00000000 (0000ms, 2363ms total)
T28A8 024:803 JLINK_ReadReg(R5)  returns 0x20003148 (0000ms, 2363ms total)
T28A8 024:803 JLINK_ReadReg(R6)  returns 0x00000000 (0000ms, 2363ms total)
T28A8 024:803 JLINK_ReadReg(R7)  returns 0x00000000 (0000ms, 2363ms total)
T28A8 024:803 JLINK_ReadReg(R8)  returns 0x00000000 (0000ms, 2363ms total)
T28A8 024:803 JLINK_ReadReg(R9)  returns 0x00000000 (0000ms, 2363ms total)
T28A8 024:803 JLINK_ReadReg(R10)  returns 0x080112BC (0000ms, 2363ms total)
T28A8 024:803 JLINK_ReadReg(R11)  returns 0x00000000 (0000ms, 2363ms total)
T28A8 024:803 JLINK_ReadReg(R12)  returns 0x00000150 (0000ms, 2363ms total)
T28A8 024:803 JLINK_ReadReg(R13 (SP))  returns 0x20003370 (0000ms, 2363ms total)
T28A8 024:803 JLINK_ReadReg(R14)  returns 0x08000437 (0000ms, 2363ms total)
T28A8 024:803 JLINK_ReadReg(R15 (PC))  returns 0x0800F546 (0000ms, 2363ms total)
T28A8 024:803 JLINK_ReadReg(XPSR)  returns 0x61000000 (0000ms, 2363ms total)
T28A8 024:803 JLINK_ReadReg(MSP)  returns 0x20003370 (0000ms, 2363ms total)
T28A8 024:803 JLINK_ReadReg(PSP)  returns 0x00000000 (0000ms, 2363ms total)
T28A8 024:803 JLINK_ReadReg(CFBP)  returns 0x04000001 (0000ms, 2363ms total)
T28A8 024:803 JLINK_ReadReg(FPSCR)  returns 0x03000000 (0010ms, 2373ms total)
T28A8 024:813 JLINK_ReadReg(FPS0)  returns 0x00000000 (0000ms, 2373ms total)
T28A8 024:813 JLINK_ReadReg(FPS1)  returns 0x00000000 (0000ms, 2373ms total)
T28A8 024:813 JLINK_ReadReg(FPS2)  returns 0x00000000 (0000ms, 2373ms total)
T28A8 024:813 JLINK_ReadReg(FPS3)  returns 0x00000000 (0000ms, 2373ms total)
T28A8 024:813 JLINK_ReadReg(FPS4)  returns 0x00000000 (0000ms, 2373ms total)
T28A8 024:813 JLINK_ReadReg(FPS5)  returns 0x00000000 (0000ms, 2373ms total)
T28A8 024:813 JLINK_ReadReg(FPS6)  returns 0x00000000 (0000ms, 2373ms total)
T28A8 024:813 JLINK_ReadReg(FPS7)  returns 0x00000000 (0000ms, 2373ms total)
T28A8 024:813 JLINK_ReadReg(FPS8)  returns 0x00000000 (0000ms, 2373ms total)
T28A8 024:813 JLINK_ReadReg(FPS9)  returns 0x00000000 (0000ms, 2373ms total)
T28A8 024:813 JLINK_ReadReg(FPS10)  returns 0x00000000 (0000ms, 2373ms total)
T28A8 024:813 JLINK_ReadReg(FPS11)  returns 0x00000000 (0000ms, 2373ms total)
T28A8 024:813 JLINK_ReadReg(FPS12)  returns 0x00000000 (0000ms, 2373ms total)
T28A8 024:813 JLINK_ReadReg(FPS13)  returns 0x00000000 (0000ms, 2373ms total)
T28A8 024:813 JLINK_ReadReg(FPS14)  returns 0x00000000 (0000ms, 2373ms total)
T28A8 024:813 JLINK_ReadReg(FPS15)  returns 0x00000000 (0000ms, 2373ms total)
T28A8 024:813 JLINK_ReadReg(FPS16)  returns 0x00000000 (0000ms, 2373ms total)
T28A8 024:813 JLINK_ReadReg(FPS17)  returns 0x00000000 (0000ms, 2373ms total)
T28A8 024:813 JLINK_ReadReg(FPS18)  returns 0x00000000 (0000ms, 2373ms total)
T28A8 024:813 JLINK_ReadReg(FPS19)  returns 0x00000000 (0000ms, 2373ms total)
T28A8 024:813 JLINK_ReadReg(FPS20)  returns 0x00000000 (0000ms, 2373ms total)
T28A8 024:813 JLINK_ReadReg(FPS21)  returns 0x00000000 (0000ms, 2373ms total)
T28A8 024:813 JLINK_ReadReg(FPS22)  returns 0x00000000 (0000ms, 2373ms total)
T28A8 024:813 JLINK_ReadReg(FPS23)  returns 0x00000000 (0000ms, 2373ms total)
T28A8 024:813 JLINK_ReadReg(FPS24)  returns 0x00000000 (0000ms, 2373ms total)
T28A8 024:813 JLINK_ReadReg(FPS25)  returns 0x00000000 (0000ms, 2373ms total)
T28A8 024:813 JLINK_ReadReg(FPS26)  returns 0x00000000 (0000ms, 2373ms total)
T28A8 024:813 JLINK_ReadReg(FPS27)  returns 0x00000000 (0000ms, 2373ms total)
T28A8 024:813 JLINK_ReadReg(FPS28)  returns 0x00000000 (0000ms, 2373ms total)
T28A8 024:813 JLINK_ReadReg(FPS29)  returns 0x00000000 (0000ms, 2373ms total)
T28A8 024:813 JLINK_ReadReg(FPS30)  returns 0x00000000 (0000ms, 2373ms total)
T28A8 024:813 JLINK_ReadReg(FPS31)  returns 0x00000000 (0000ms, 2373ms total)
T3A54 024:814 JLINK_ReadMemEx(0x2000338C, 0x0004 Bytes, ..., Flags = 0x02000000) -- CPU_ReadMem(64 bytes @ 0x20003380) -- Updating C cache (64 bytes @ 0x20003380) -- Read from C cache (4 bytes @ 0x2000338C) - Data: 37 04 00 08  returns 0x04 (0001ms, 2374ms total)
T3A54 024:815 JLINK_ReadMemEx(0x20003388, 0x0004 Bytes, ..., Flags = 0x02000000) -- Read from C cache (4 bytes @ 0x20003388) - Data: 00 00 00 00  returns 0x04 (0000ms, 2374ms total)
T3A54 024:815 JLINK_ReadMemEx(0x20003394, 0x0004 Bytes, ..., Flags = 0x02000000) -- Read from C cache (4 bytes @ 0x20003394) - Data: E5 02 00 08  returns 0x04 (0000ms, 2374ms total)
T3A54 024:815 JLINK_ReadMemEx(0x20003390, 0x0004 Bytes, ..., Flags = 0x02000000) -- Read from C cache (4 bytes @ 0x20003390) - Data: 00 00 00 00  returns 0x04 (0000ms, 2374ms total)
T3A54 024:815 JLINK_ReadMemEx(0x2000339C, 0x0004 Bytes, ..., Flags = 0x02000000) -- Read from C cache (4 bytes @ 0x2000339C) - Data: 27 03 00 08  returns 0x04 (0000ms, 2374ms total)
T3A54 024:815 JLINK_ReadMemEx(0x20003398, 0x0004 Bytes, ..., Flags = 0x02000000) -- Read from C cache (4 bytes @ 0x20003398) - Data: 00 00 00 00  returns 0x04 (0000ms, 2374ms total)
T3A54 024:815 JLINK_ReadMemEx(0x200033A4, 0x0004 Bytes, ..., Flags = 0x02000000) -- Read from C cache (4 bytes @ 0x200033A4) - Data: 69 02 00 08  returns 0x04 (0000ms, 2374ms total)
T3A54 024:815 JLINK_ReadMemEx(0x00000000, 0x0002 Bytes, ..., Flags = 0x02000000) -- CPU_ReadMem(4 bytes @ 0x00000004) -- CPU_ReadMem(64 bytes @ 0x08000000) -- Updating C cache (64 bytes @ 0x08000000) -- Read from C cache (2 bytes @ 0x08000000) - Data: A8 33  returns 0x02 (0002ms, 2376ms total)
T3A54 024:824 JLINK_ReadMemEx(0x20001EC8, 0x0020 Bytes, ..., Flags = 0x02000000) -- CPU_ReadMem(64 bytes @ 0x20001EC0) -- Updating C cache (64 bytes @ 0x20001EC0) -- Read from C cache (32 bytes @ 0x20001EC8) - Data: 00 00 00 00 00 00 00 00 00 00 00 00 00 00 00 00 ...  returns 0x20 (0001ms, 2377ms total)
T3A54 024:830 JLINK_ReadMemEx(0x0800F542, 0x0002 Bytes, ..., Flags = 0x02000000) -- CPU_ReadMem(64 bytes @ 0x0800F540) -- Updating C cache (64 bytes @ 0x0800F540) -- Read from C cache (2 bytes @ 0x0800F542) - Data: 10 B5  returns 0x02 (0001ms, 2378ms total)
T3A54 024:831 JLINK_ReadMemEx(0x0800F544, 0x003C Bytes, ..., Flags = 0x02000000) -- Read from C cache (60 bytes @ 0x0800F544) - Data: 86 B0 18 24 B4 F5 80 6F 02 DD 01 20 06 B0 10 BD ...  returns 0x3C (0000ms, 2378ms total)
T3A54 026:782 JLINK_ReadMemEx(0x20003370, 0x0002 Bytes, ..., Flags = 0x02000000) -- CPU_ReadMem(64 bytes @ 0x20003340) -- Updating C cache (64 bytes @ 0x20003340) -- Read from C cache (2 bytes @ 0x20003370) - Data: 00 00  returns 0x02 (0001ms, 2379ms total)
T3A54 026:783 JLINK_ReadMemEx(0x20003372, 0x0002 Bytes, ..., Flags = 0x02000000) -- Read from C cache (2 bytes @ 0x20003372) - Data: 04 01  returns 0x02 (0000ms, 2379ms total)
T3A54 026:783 JLINK_ReadMemEx(0x20003374, 0x0002 Bytes, ..., Flags = 0x02000000) -- Read from C cache (2 bytes @ 0x20003374) - Data: 00 00  returns 0x02 (0000ms, 2379ms total)
T3A54 026:783 JLINK_ReadMemEx(0x20003376, 0x0002 Bytes, ..., Flags = 0x02000000) -- Read from C cache (2 bytes @ 0x20003376) - Data: 02 00  returns 0x02 (0000ms, 2379ms total)
T3A54 026:783 JLINK_ReadMemEx(0x20003378, 0x0004 Bytes, ..., Flags = 0x02000000) -- Read from C cache (4 bytes @ 0x20003378) - Data: 01 00 00 02  returns 0x04 (0000ms, 2379ms total)
T3A54 026:783 JLINK_ReadMemEx(0x2000337C, 0x0004 Bytes, ..., Flags = 0x02000000) -- Read from C cache (4 bytes @ 0x2000337C) - Data: 18 00 00 00  returns 0x04 (0000ms, 2379ms total)
T3A54 026:783 JLINK_ReadMemEx(0x20003380, 0x0002 Bytes, ..., Flags = 0x02000000) -- Read from C cache (2 bytes @ 0x20003380) - Data: 07 00  returns 0x02 (0000ms, 2379ms total)
T3A54 026:783 JLINK_ReadMemEx(0x20003382, 0x0002 Bytes, ..., Flags = 0x02000000) -- Read from C cache (2 bytes @ 0x20003382) - Data: 00 00  returns 0x02 (0000ms, 2379ms total)
T3A54 026:783 JLINK_ReadMemEx(0x20003384, 0x0002 Bytes, ..., Flags = 0x02000000) -- Read from C cache (2 bytes @ 0x20003384) - Data: 23 E0  returns 0x02 (0000ms, 2379ms total)
T3A54 027:433 JLINK_ReadMemEx(0x20000220, 0x0002 Bytes, ..., Flags = 0x02000000) -- CPU_ReadMem(64 bytes @ 0x20000200) -- Updating C cache (64 bytes @ 0x20000200) -- Read from C cache (2 bytes @ 0x20000220) - Data: 00 00  returns 0x02 (0002ms, 2381ms total)
T3A54 027:435 JLINK_ReadMemEx(0x20000222, 0x0002 Bytes, ..., Flags = 0x02000000) -- Read from C cache (2 bytes @ 0x20000222) - Data: 7D 00  returns 0x02 (0000ms, 2381ms total)
T3A54 027:435 JLINK_ReadMemEx(0x20000224, 0x0002 Bytes, ..., Flags = 0x02000000) -- Read from C cache (2 bytes @ 0x20000224) - Data: 01 00  returns 0x02 (0000ms, 2381ms total)
T3A54 027:435 JLINK_ReadMemEx(0x20000226, 0x0002 Bytes, ..., Flags = 0x02000000) -- Read from C cache (2 bytes @ 0x20000226) - Data: 01 02  returns 0x02 (0000ms, 2381ms total)
T3A54 027:435 JLINK_ReadMemEx(0x20000228, 0x0004 Bytes, ..., Flags = 0x02000000) -- Read from C cache (4 bytes @ 0x20000228) - Data: 00 00 00 00  returns 0x04 (0000ms, 2381ms total)
T3A54 027:435 JLINK_ReadMemEx(0x2000022C, 0x0004 Bytes, ..., Flags = 0x02000000) -- Read from C cache (4 bytes @ 0x2000022C) - Data: 00 00 00 00  returns 0x04 (0000ms, 2381ms total)
T3A54 027:435 JLINK_ReadMemEx(0x20000230, 0x0002 Bytes, ..., Flags = 0x02000000) -- Read from C cache (2 bytes @ 0x20000230) - Data: 00 00  returns 0x02 (0000ms, 2381ms total)
T3A54 027:435 JLINK_ReadMemEx(0x20000232, 0x0002 Bytes, ..., Flags = 0x02000000) -- Read from C cache (2 bytes @ 0x20000232) - Data: 00 00  returns 0x02 (0000ms, 2381ms total)
T3A54 027:435 JLINK_ReadMemEx(0x20000234, 0x0002 Bytes, ..., Flags = 0x02000000) -- Read from C cache (2 bytes @ 0x20000234) - Data: 00 00  returns 0x02 (0000ms, 2381ms total)
T28A8 029:721 JLINK_ReadMemEx(0x0800F546, 0x0002 Bytes, ..., Flags = 0x02000000) -- Read from C cache (2 bytes @ 0x0800F546) - Data: 18 24  returns 0x02 (0000ms, 2381ms total)
T28A8 029:721 JLINK_Step() -- Read from C cache (2 bytes @ 0x0800F546) -- CPU_ReadMem(4 bytes @ 0xE000ED18) -- CPU_WriteMem(4 bytes @ 0xE000ED18) -- CPU_ReadMem(4 bytes @ 0xE000ED18) -- CPU_WriteMem(4 bytes @ 0xE000ED18) -- CPU_ReadMem(4 bytes @ 0xE0001004) -- Simulated  returns 0x00 (0004ms, 2385ms total)
T28A8 029:725 JLINK_ReadReg(R15 (PC))  returns 0x0800F548 (0000ms, 2385ms total)
T28A8 029:725 JLINK_ReadReg(XPSR)  returns 0x21000000 (0000ms, 2385ms total)
T28A8 029:725 JLINK_ReadReg(R0)  returns 0x00000000 (0000ms, 2385ms total)
T28A8 029:725 JLINK_ReadReg(R1)  returns 0x00000001 (0000ms, 2385ms total)
T28A8 029:725 JLINK_ReadReg(R2)  returns 0x00008000 (0000ms, 2385ms total)
T28A8 029:725 JLINK_ReadReg(R3)  returns 0x00010201 (0000ms, 2385ms total)
T28A8 029:725 JLINK_ReadReg(R4)  returns 0x00000018 (0000ms, 2385ms total)
T28A8 029:725 JLINK_ReadReg(R5)  returns 0x20003148 (0000ms, 2385ms total)
T28A8 029:725 JLINK_ReadReg(R6)  returns 0x00000000 (0000ms, 2385ms total)
T28A8 029:725 JLINK_ReadReg(R7)  returns 0x00000000 (0000ms, 2385ms total)
T28A8 029:725 JLINK_ReadReg(R8)  returns 0x00000000 (0000ms, 2385ms total)
T28A8 029:725 JLINK_ReadReg(R9)  returns 0x00000000 (0000ms, 2385ms total)
T28A8 029:725 JLINK_ReadReg(R10)  returns 0x080112BC (0000ms, 2385ms total)
T28A8 029:725 JLINK_ReadReg(R11)  returns 0x00000000 (0000ms, 2385ms total)
T28A8 029:725 JLINK_ReadReg(R12)  returns 0x00000150 (0000ms, 2385ms total)
T28A8 029:725 JLINK_ReadReg(R13 (SP))  returns 0x20003370 (0000ms, 2385ms total)
T28A8 029:725 JLINK_ReadReg(R14)  returns 0x08000437 (0000ms, 2385ms total)
T28A8 029:725 JLINK_ReadReg(R15 (PC))  returns 0x0800F548 (0000ms, 2385ms total)
T28A8 029:725 JLINK_ReadReg(XPSR)  returns 0x21000000 (0000ms, 2385ms total)
T28A8 029:725 JLINK_ReadReg(MSP)  returns 0x20003370 (0000ms, 2385ms total)
T28A8 029:725 JLINK_ReadReg(PSP)  returns 0x00000000 (0000ms, 2385ms total)
T28A8 029:725 JLINK_ReadReg(CFBP)  returns 0x04000001 (0000ms, 2385ms total)
T28A8 029:725 JLINK_ReadReg(FPSCR)  returns 0x03000000 (0000ms, 2385ms total)
T28A8 029:725 JLINK_ReadReg(FPS0)  returns 0x00000000 (0000ms, 2385ms total)
T28A8 029:725 JLINK_ReadReg(FPS1)  returns 0x00000000 (0000ms, 2385ms total)
T28A8 029:725 JLINK_ReadReg(FPS2)  returns 0x00000000 (0000ms, 2385ms total)
T28A8 029:725 JLINK_ReadReg(FPS3)  returns 0x00000000 (0000ms, 2385ms total)
T28A8 029:725 JLINK_ReadReg(FPS4)  returns 0x00000000 (0000ms, 2385ms total)
T28A8 029:725 JLINK_ReadReg(FPS5)  returns 0x00000000 (0000ms, 2385ms total)
T28A8 029:725 JLINK_ReadReg(FPS6)  returns 0x00000000 (0000ms, 2385ms total)
T28A8 029:725 JLINK_ReadReg(FPS7)  returns 0x00000000 (0000ms, 2385ms total)
T28A8 029:725 JLINK_ReadReg(FPS8)  returns 0x00000000 (0000ms, 2385ms total)
T28A8 029:725 JLINK_ReadReg(FPS9)  returns 0x00000000 (0000ms, 2385ms total)
T28A8 029:725 JLINK_ReadReg(FPS10)  returns 0x00000000 (0000ms, 2385ms total)
T28A8 029:725 JLINK_ReadReg(FPS11)  returns 0x00000000 (0000ms, 2385ms total)
T28A8 029:725 JLINK_ReadReg(FPS12)  returns 0x00000000 (0000ms, 2385ms total)
T28A8 029:725 JLINK_ReadReg(FPS13)  returns 0x00000000 (0000ms, 2385ms total)
T28A8 029:725 JLINK_ReadReg(FPS14)  returns 0x00000000 (0000ms, 2385ms total)
T28A8 029:725 JLINK_ReadReg(FPS15)  returns 0x00000000 (0000ms, 2385ms total)
T28A8 029:725 JLINK_ReadReg(FPS16)  returns 0x00000000 (0000ms, 2385ms total)
T28A8 029:725 JLINK_ReadReg(FPS17)  returns 0x00000000 (0000ms, 2385ms total)
T28A8 029:725 JLINK_ReadReg(FPS18)  returns 0x00000000 (0000ms, 2385ms total)
T28A8 029:725 JLINK_ReadReg(FPS19)  returns 0x00000000 (0000ms, 2385ms total)
T28A8 029:725 JLINK_ReadReg(FPS20)  returns 0x00000000 (0000ms, 2385ms total)
T28A8 029:725 JLINK_ReadReg(FPS21)  returns 0x00000000 (0000ms, 2385ms total)
T28A8 029:725 JLINK_ReadReg(FPS22)  returns 0x00000000 (0000ms, 2385ms total)
T28A8 029:725 JLINK_ReadReg(FPS23)  returns 0x00000000 (0000ms, 2385ms total)
T28A8 029:725 JLINK_ReadReg(FPS24)  returns 0x00000000 (0000ms, 2385ms total)
T28A8 029:725 JLINK_ReadReg(FPS25)  returns 0x00000000 (0000ms, 2385ms total)
T28A8 029:725 JLINK_ReadReg(FPS26)  returns 0x00000000 (0000ms, 2385ms total)
T28A8 029:725 JLINK_ReadReg(FPS27)  returns 0x00000000 (0000ms, 2385ms total)
T28A8 029:725 JLINK_ReadReg(FPS28)  returns 0x00000000 (0000ms, 2385ms total)
T28A8 029:725 JLINK_ReadReg(FPS29)  returns 0x00000000 (0000ms, 2385ms total)
T28A8 029:725 JLINK_ReadReg(FPS30)  returns 0x00000000 (0000ms, 2385ms total)
T28A8 029:725 JLINK_ReadReg(FPS31)  returns 0x00000000 (0000ms, 2385ms total)
T3A54 029:727 JLINK_ReadMemEx(0x2000338C, 0x0004 Bytes, ..., Flags = 0x02000000) -- Read from C cache (4 bytes @ 0x2000338C) - Data: 37 04 00 08  returns 0x04 (0000ms, 2385ms total)
T3A54 029:727 JLINK_ReadMemEx(0x20003388, 0x0004 Bytes, ..., Flags = 0x02000000) -- Read from C cache (4 bytes @ 0x20003388) - Data: 00 00 00 00  returns 0x04 (0000ms, 2385ms total)
T3A54 029:727 JLINK_ReadMemEx(0x20003394, 0x0004 Bytes, ..., Flags = 0x02000000) -- Read from C cache (4 bytes @ 0x20003394) - Data: E5 02 00 08  returns 0x04 (0000ms, 2385ms total)
T3A54 029:727 JLINK_ReadMemEx(0x20003390, 0x0004 Bytes, ..., Flags = 0x02000000) -- Read from C cache (4 bytes @ 0x20003390) - Data: 00 00 00 00  returns 0x04 (0000ms, 2385ms total)
T3A54 029:727 JLINK_ReadMemEx(0x2000339C, 0x0004 Bytes, ..., Flags = 0x02000000) -- Read from C cache (4 bytes @ 0x2000339C) - Data: 27 03 00 08  returns 0x04 (0000ms, 2385ms total)
T3A54 029:727 JLINK_ReadMemEx(0x20003398, 0x0004 Bytes, ..., Flags = 0x02000000) -- Read from C cache (4 bytes @ 0x20003398) - Data: 00 00 00 00  returns 0x04 (0000ms, 2385ms total)
T3A54 029:727 JLINK_ReadMemEx(0x200033A4, 0x0004 Bytes, ..., Flags = 0x02000000) -- Read from C cache (4 bytes @ 0x200033A4) - Data: 69 02 00 08  returns 0x04 (0000ms, 2385ms total)
T3A54 029:729 JLINK_ReadMemEx(0x20000220, 0x0002 Bytes, ..., Flags = 0x02000000) -- Read from C cache (2 bytes @ 0x20000220) - Data: 00 00  returns 0x02 (0000ms, 2385ms total)
T3A54 029:729 JLINK_ReadMemEx(0x20000222, 0x0002 Bytes, ..., Flags = 0x02000000) -- Read from C cache (2 bytes @ 0x20000222) - Data: 7D 00  returns 0x02 (0000ms, 2385ms total)
T3A54 029:729 JLINK_ReadMemEx(0x20000224, 0x0002 Bytes, ..., Flags = 0x02000000) -- Read from C cache (2 bytes @ 0x20000224) - Data: 01 00  returns 0x02 (0000ms, 2385ms total)
T3A54 029:729 JLINK_ReadMemEx(0x20000226, 0x0002 Bytes, ..., Flags = 0x02000000) -- Read from C cache (2 bytes @ 0x20000226) - Data: 01 02  returns 0x02 (0000ms, 2385ms total)
T3A54 029:729 JLINK_ReadMemEx(0x20000228, 0x0004 Bytes, ..., Flags = 0x02000000) -- Read from C cache (4 bytes @ 0x20000228) - Data: 00 00 00 00  returns 0x04 (0000ms, 2385ms total)
T3A54 029:729 JLINK_ReadMemEx(0x2000022C, 0x0004 Bytes, ..., Flags = 0x02000000) -- Read from C cache (4 bytes @ 0x2000022C) - Data: 00 00 00 00  returns 0x04 (0000ms, 2385ms total)
T3A54 029:729 JLINK_ReadMemEx(0x20000230, 0x0002 Bytes, ..., Flags = 0x02000000) -- Read from C cache (2 bytes @ 0x20000230) - Data: 00 00  returns 0x02 (0000ms, 2385ms total)
T3A54 029:729 JLINK_ReadMemEx(0x20000232, 0x0002 Bytes, ..., Flags = 0x02000000) -- Read from C cache (2 bytes @ 0x20000232) - Data: 00 00  returns 0x02 (0000ms, 2385ms total)
T3A54 029:729 JLINK_ReadMemEx(0x20000234, 0x0002 Bytes, ..., Flags = 0x02000000) -- Read from C cache (2 bytes @ 0x20000234) - Data: 00 00  returns 0x02 (0000ms, 2385ms total)
T3A54 029:729 JLINK_ReadMemEx(0x20003370, 0x0002 Bytes, ..., Flags = 0x02000000) -- Read from C cache (2 bytes @ 0x20003370) - Data: 00 00  returns 0x02 (0000ms, 2385ms total)
T3A54 029:729 JLINK_ReadMemEx(0x20003372, 0x0002 Bytes, ..., Flags = 0x02000000) -- Read from C cache (2 bytes @ 0x20003372) - Data: 04 01  returns 0x02 (0000ms, 2385ms total)
T3A54 029:729 JLINK_ReadMemEx(0x20003374, 0x0002 Bytes, ..., Flags = 0x02000000) -- Read from C cache (2 bytes @ 0x20003374) - Data: 00 00  returns 0x02 (0000ms, 2385ms total)
T3A54 029:729 JLINK_ReadMemEx(0x20003376, 0x0002 Bytes, ..., Flags = 0x02000000) -- Read from C cache (2 bytes @ 0x20003376) - Data: 02 00  returns 0x02 (0000ms, 2385ms total)
T3A54 029:729 JLINK_ReadMemEx(0x20003378, 0x0004 Bytes, ..., Flags = 0x02000000) -- Read from C cache (4 bytes @ 0x20003378) - Data: 01 00 00 02  returns 0x04 (0000ms, 2385ms total)
T3A54 029:729 JLINK_ReadMemEx(0x2000337C, 0x0004 Bytes, ..., Flags = 0x02000000) -- Read from C cache (4 bytes @ 0x2000337C) - Data: 18 00 00 00  returns 0x04 (0000ms, 2385ms total)
T3A54 029:729 JLINK_ReadMemEx(0x20003380, 0x0002 Bytes, ..., Flags = 0x02000000) -- Read from C cache (2 bytes @ 0x20003380) - Data: 07 00  returns 0x02 (0000ms, 2385ms total)
T3A54 029:729 JLINK_ReadMemEx(0x20003382, 0x0002 Bytes, ..., Flags = 0x02000000) -- Read from C cache (2 bytes @ 0x20003382) - Data: 00 00  returns 0x02 (0000ms, 2385ms total)
T3A54 029:729 JLINK_ReadMemEx(0x20003384, 0x0002 Bytes, ..., Flags = 0x02000000) -- Read from C cache (2 bytes @ 0x20003384) - Data: 23 E0  returns 0x02 (0000ms, 2385ms total)
T3A54 029:729 JLINK_ReadMemEx(0x20001EC8, 0x0020 Bytes, ..., Flags = 0x02000000) -- Read from C cache (32 bytes @ 0x20001EC8) - Data: 00 00 00 00 00 00 00 00 00 00 00 00 00 00 00 00 ...  returns 0x20 (0000ms, 2385ms total)
T3A54 029:736 JLINK_ReadMemEx(0x0800F544, 0x003C Bytes, ..., Flags = 0x02000000) -- Read from C cache (60 bytes @ 0x0800F544) - Data: 86 B0 18 24 B4 F5 80 6F 02 DD 01 20 06 B0 10 BD ...  returns 0x3C (0000ms, 2385ms total)
T28A8 030:716 JLINK_ReadMemEx(0x0800F548, 0x0002 Bytes, ..., Flags = 0x02000000) -- Read from C cache (2 bytes @ 0x0800F548) - Data: B4 F5  returns 0x02 (0000ms, 2385ms total)
T28A8 030:716 JLINK_Step() -- Read from C cache (2 bytes @ 0x0800F548) -- Read from C cache (2 bytes @ 0x0800F54A) -- Simulated  returns 0x00 (0001ms, 2386ms total)
T28A8 030:717 JLINK_ReadReg(R15 (PC))  returns 0x0800F54C (0000ms, 2386ms total)
T28A8 030:717 JLINK_ReadReg(XPSR)  returns 0x81000000 (0000ms, 2386ms total)
T28A8 030:717 JLINK_ReadMemEx(0x0800F54A, 0x0002 Bytes, ..., Flags = 0x02000000) -- Read from C cache (2 bytes @ 0x0800F54A) - Data: 80 6F  returns 0x02 (0000ms, 2386ms total)
T28A8 030:717 JLINK_ReadMemEx(0x0800F54C, 0x003C Bytes, ..., Flags = 0x02000000) -- CPU_ReadMem(64 bytes @ 0x0800F580) -- Updating C cache (64 bytes @ 0x0800F580) -- Read from C cache (60 bytes @ 0x0800F54C) - Data: 02 DD 01 20 06 B0 10 BD 0F 48 22 46 4F F4 78 01 ...  returns 0x3C (0001ms, 2387ms total)
T28A8 030:718 JLINK_ReadMemEx(0x0800F54C, 0x0002 Bytes, ..., Flags = 0x02000000) -- Read from C cache (2 bytes @ 0x0800F54C) - Data: 02 DD  returns 0x02 (0000ms, 2387ms total)
T28A8 030:718 JLINK_Step() -- Read from C cache (2 bytes @ 0x0800F54C) -- Simulated  returns 0x00 (0000ms, 2387ms total)
T28A8 030:718 JLINK_ReadReg(R15 (PC))  returns 0x0800F554 (0000ms, 2387ms total)
T28A8 030:718 JLINK_ReadReg(XPSR)  returns 0x81000000 (0000ms, 2387ms total)
T28A8 030:718 JLINK_ReadReg(R0)  returns 0x00000000 (0000ms, 2387ms total)
T28A8 030:718 JLINK_ReadReg(R1)  returns 0x00000001 (0000ms, 2387ms total)
T28A8 030:718 JLINK_ReadReg(R2)  returns 0x00008000 (0000ms, 2387ms total)
T28A8 030:718 JLINK_ReadReg(R3)  returns 0x00010201 (0000ms, 2387ms total)
T28A8 030:718 JLINK_ReadReg(R4)  returns 0x00000018 (0000ms, 2387ms total)
T28A8 030:718 JLINK_ReadReg(R5)  returns 0x20003148 (0000ms, 2387ms total)
T28A8 030:718 JLINK_ReadReg(R6)  returns 0x00000000 (0000ms, 2387ms total)
T28A8 030:718 JLINK_ReadReg(R7)  returns 0x00000000 (0000ms, 2387ms total)
T28A8 030:718 JLINK_ReadReg(R8)  returns 0x00000000 (0000ms, 2387ms total)
T28A8 030:718 JLINK_ReadReg(R9)  returns 0x00000000 (0000ms, 2387ms total)
T28A8 030:718 JLINK_ReadReg(R10)  returns 0x080112BC (0000ms, 2387ms total)
T28A8 030:718 JLINK_ReadReg(R11)  returns 0x00000000 (0000ms, 2387ms total)
T28A8 030:718 JLINK_ReadReg(R12)  returns 0x00000150 (0000ms, 2387ms total)
T28A8 030:718 JLINK_ReadReg(R13 (SP))  returns 0x20003370 (0000ms, 2387ms total)
T28A8 030:718 JLINK_ReadReg(R14)  returns 0x08000437 (0000ms, 2387ms total)
T28A8 030:718 JLINK_ReadReg(R15 (PC))  returns 0x0800F554 (0000ms, 2387ms total)
T28A8 030:718 JLINK_ReadReg(XPSR)  returns 0x81000000 (0000ms, 2387ms total)
T28A8 030:718 JLINK_ReadReg(MSP)  returns 0x20003370 (0000ms, 2387ms total)
T28A8 030:718 JLINK_ReadReg(PSP)  returns 0x00000000 (0000ms, 2387ms total)
T28A8 030:718 JLINK_ReadReg(CFBP)  returns 0x04000001 (0000ms, 2387ms total)
T28A8 030:718 JLINK_ReadReg(FPSCR)  returns 0x03000000 (0000ms, 2387ms total)
T28A8 030:718 JLINK_ReadReg(FPS0)  returns 0x00000000 (0000ms, 2387ms total)
T28A8 030:718 JLINK_ReadReg(FPS1)  returns 0x00000000 (0000ms, 2387ms total)
T28A8 030:718 JLINK_ReadReg(FPS2)  returns 0x00000000 (0000ms, 2387ms total)
T28A8 030:718 JLINK_ReadReg(FPS3)  returns 0x00000000 (0000ms, 2387ms total)
T28A8 030:718 JLINK_ReadReg(FPS4)  returns 0x00000000 (0000ms, 2387ms total)
T28A8 030:718 JLINK_ReadReg(FPS5)  returns 0x00000000 (0001ms, 2388ms total)
T28A8 030:719 JLINK_ReadReg(FPS6)  returns 0x00000000 (0000ms, 2388ms total)
T28A8 030:719 JLINK_ReadReg(FPS7)  returns 0x00000000 (0000ms, 2388ms total)
T28A8 030:719 JLINK_ReadReg(FPS8)  returns 0x00000000 (0000ms, 2388ms total)
T28A8 030:719 JLINK_ReadReg(FPS9)  returns 0x00000000 (0000ms, 2388ms total)
T28A8 030:719 JLINK_ReadReg(FPS10)  returns 0x00000000 (0000ms, 2388ms total)
T28A8 030:719 JLINK_ReadReg(FPS11)  returns 0x00000000 (0000ms, 2388ms total)
T28A8 030:719 JLINK_ReadReg(FPS12)  returns 0x00000000 (0000ms, 2388ms total)
T28A8 030:719 JLINK_ReadReg(FPS13)  returns 0x00000000 (0000ms, 2388ms total)
T28A8 030:719 JLINK_ReadReg(FPS14)  returns 0x00000000 (0000ms, 2388ms total)
T28A8 030:719 JLINK_ReadReg(FPS15)  returns 0x00000000 (0000ms, 2388ms total)
T28A8 030:719 JLINK_ReadReg(FPS16)  returns 0x00000000 (0000ms, 2388ms total)
T28A8 030:719 JLINK_ReadReg(FPS17)  returns 0x00000000 (0000ms, 2388ms total)
T28A8 030:719 JLINK_ReadReg(FPS18)  returns 0x00000000 (0000ms, 2388ms total)
T28A8 030:719 JLINK_ReadReg(FPS19)  returns 0x00000000 (0000ms, 2388ms total)
T28A8 030:719 JLINK_ReadReg(FPS20)  returns 0x00000000 (0000ms, 2388ms total)
T28A8 030:719 JLINK_ReadReg(FPS21)  returns 0x00000000 (0000ms, 2388ms total)
T28A8 030:719 JLINK_ReadReg(FPS22)  returns 0x00000000 (0000ms, 2388ms total)
